T19F8 2759:369.728   SEGGER J-Link V8.30 Log File
T19F8 2759:369.728   DLL Compiled: Apr 30 2025 12:01:29
T19F8 2759:369.728   Logging started @ 2025-06-16 03:18
T19F8 2759:369.728   Process: C:\Keil_v5\UV4\UV4.exe
T19F8 2759:369.728 - 2759369.728ms 
T19F8 2759:369.728 JLINK_SetWarnOutHandler(...)
T19F8 2759:369.728 - 0.004ms 
T19F8 2759:369.728 JLINK_OpenEx(...)
T19F8 2759:374.336   Firmware: J-Link V12 compiled Apr  1 2025 10:02:39
T19F8 2759:375.104   Firmware: J-Link V12 compiled Apr  1 2025 10:02:39
T19F8 2759:419.136   Hardware: V12.00
T19F8 2759:419.392   S/N: 941000024
T19F8 2759:419.392   OEM: SEGGER
T19F8 2759:419.392   Feature(s): RDI, FlashBP, FlashDL, JFlash, GDB
T19F8 2759:421.440   Bootloader: (FW returned invalid version)
T19F8 2759:421.696   USB speed mode: High speed (480 MBit/s)
T19F8 2759:421.696   Active J-Link Eco level: 3 (https://wiki.segger.com/J-Link_Eco)
T19F8 2759:422.208   TELNET listener socket opened on port 19021
T19F8 2759:422.208   WEBSRV WEBSRV_Init(): Starting webserver thread(s)
T19F8 2759:422.464   WEBSRV Webserver running on local port 19080
T19F8 2759:422.464   Looking for J-Link GUI Server exe at: C:\Keil_v5\ARM\Segger\JLinkGUIServer.exe
T19F8 2759:422.464   Looking for J-Link GUI Server exe at: C:\Program Files\SEGGER\JLink_V830\JLinkGUIServer.exe
T19F8 2759:422.464   Forking J-Link GUI Server: C:\Program Files\SEGGER\JLink_V830\JLinkGUIServer.exe
T19F8 2759:981.056   Failed to connect to J-Link GUI Server.
T19F8 2759:981.312 - 611.374ms returns "O.K."
T19F8 2759:981.312 JLINK_GetEmuCaps()
T19F8 2759:981.312 - 0.009ms returns 0xB9FF7BBF
T19F8 2759:981.568 JLINK_TIF_GetAvailable(...)
T19F8 2759:981.568 - 0.306ms 
T19F8 2759:981.568 JLINK_SetErrorOutHandler(...)
T19F8 2759:981.568 - 0.008ms 
T19F8 2759:981.824 JLINK_ExecCommand("ProjectFile = "C:\gd32\c1_driver\Firmware_app\MDK-ARM\JLinkSettings.ini"", ...). 
T19F8 2760:013.568   Ref file found at: C:\Keil_v5\ARM\Segger\JLinkDevices.ref
T19F8 2760:013.824   REF file references invalid XML file: C:\Program Files\SEGGER\JLink_V830\JLinkDevices.xml
T19F8 2760:015.360   Flash bank @ 0x1FFFF800: SFL: Parsing sectorization info from ELF file
T19F8 2760:015.360     FlashDevice.SectorInfo[0]: .SectorSize = 0x00000010, .SectorStartAddr = 0x00000000
T19F8 2760:017.408   Device "GD32E103CBT6" selected.
T19F8 2760:017.664 - 35.816ms returns 0x00
T19F8 2760:019.200 JLINK_ExecCommand("Device = GD32C103CB", ...). 
T19F8 2760:019.456   Flash bank @ 0x1FFFF800: SFL: Parsing sectorization info from ELF file
T19F8 2760:019.456     FlashDevice.SectorInfo[0]: .SectorSize = 0x00000010, .SectorStartAddr = 0x00000000
T19F8 2760:020.736   Device "GD32E103CBT6" selected.
T19F8 2760:020.992 - 1.795ms returns 0x00
T19F8 2760:020.992 JLINK_ExecCommand("DisableConnectionTimeout", ...). 
T19F8 2760:020.992   ERROR: Unknown command
T19F8 2760:020.992 - 0.011ms returns 0x01
T19F8 2760:020.992 JLINK_GetHardwareVersion()
T19F8 2760:020.992 - 0.003ms returns 120000
T19F8 2760:020.992 JLINK_GetDLLVersion()
T19F8 2760:020.992 - 0.003ms returns 83000
T19F8 2760:020.992 JLINK_GetOEMString(...)
T19F8 2760:020.992 JLINK_GetFirmwareString(...)
T19F8 2760:020.992 - 0.003ms 
T19F8 2760:025.088 JLINK_GetDLLVersion()
T19F8 2760:025.088 - 0.009ms returns 83000
T19F8 2760:025.088 JLINK_GetCompileDateTime()
T19F8 2760:025.088 - 0.002ms 
T19F8 2760:026.368 JLINK_GetFirmwareString(...)
T19F8 2760:026.368 - 0.009ms 
T19F8 2760:027.648 JLINK_GetHardwareVersion()
T19F8 2760:027.648 - 0.011ms returns 120000
T19F8 2760:035.072 JLINK_GetSN()
T19F8 2760:035.072 - 0.012ms returns 941000024
T19F8 2760:036.352 JLINK_GetOEMString(...)
T19F8 2760:038.912 JLINK_TIF_Select(JLINKARM_TIF_SWD)
T19F8 2760:039.680 - 0.665ms returns 0x00
T19F8 2760:039.680 JLINK_HasError()
T19F8 2760:039.936 JLINK_SetSpeed(1000)
T19F8 2760:039.936 - 0.053ms 
T19F8 2760:039.936 JLINK_GetId()
T19F8 2760:041.472   InitTarget() start
T19F8 2760:041.472    J-Link Script File: Executing InitTarget()
T19F8 2760:042.752   Identifying target device...
T19F8 2760:044.032   SWD selected. Executing JTAG -> SWD switching sequence...
T19F8 2760:048.128   DAP initialized successfully.
T19F8 2760:049.920     No Protection is set.
T19F8 2760:051.200   InitTarget() end - Took 8.46ms
T19F8 2760:054.272   Found SW-DP with ID 0x2BA01477
T19F8 2760:058.112   DPIDR: 0x2BA01477
T19F8 2760:059.392   CoreSight SoC-400 or earlier
T19F8 2760:062.464   Scanning AP map to find all available APs
T19F8 2760:064.768   AP[1]: Stopped AP scan as end of AP map has been reached
T19F8 2760:066.048   AP[0]: AHB-AP (IDR: 0x24770011, ADDR: 0x00000000)
T19F8 2760:067.584   Iterating through AP map to find AHB-AP to use
T19F8 2760:070.656   AP[0]: Core found
T19F8 2760:071.680   AP[0]: AHB-AP ROM base: 0xE00FF000
T19F8 2760:073.984   CPUID register: 0xA00FC241. Implementer code: 0xA0 (???)
T19F8 2760:076.032   Found Cortex-M4 r0p1, Little endian.
T19F8 2760:077.056   -- Max. mem block: 0x00003BA8
T19F8 2760:078.848   CPU_ReadMem(4 bytes @ 0xE000EDF0)
T19F8 2760:079.616   CPU_WriteMem(4 bytes @ 0xE000EDF0)
T19F8 2760:080.128   CPU_ReadMem(4 bytes @ 0xE0002000)
T19F8 2760:082.432   FPUnit: 6 code (BP) slots and 2 literal slots
T19F8 2760:082.432   CPU_ReadMem(4 bytes @ 0xE000EDFC)
T19F8 2760:082.944   CPU_WriteMem(4 bytes @ 0xE000EDFC)
T19F8 2760:083.456   CPU_ReadMem(4 bytes @ 0xE0001000)
T19F8 2760:083.968   CPU_WriteMem(4 bytes @ 0xE0001000)
T19F8 2760:085.248   CPU_ReadMem(4 bytes @ 0xE000ED88)
T19F8 2760:086.016   CPU_WriteMem(4 bytes @ 0xE000ED88)
T19F8 2760:086.784   CPU_ReadMem(4 bytes @ 0xE000ED88)
T19F8 2760:087.296   CPU_WriteMem(4 bytes @ 0xE000ED88)
T19F8 2760:089.344   CoreSight components:
T19F8 2760:090.624   ROMTbl[0] @ E00FF000
T19F8 2760:090.624   CPU_ReadMem(64 bytes @ 0xE00FF000)
T19F8 2760:092.160   CPU_ReadMem(32 bytes @ 0xE000EFE0)
T19F8 2760:094.464   [0][0]: E000E000 CID B105E00D PID 000BB00C SCS-M7
T19F8 2760:094.464   CPU_ReadMem(32 bytes @ 0xE0001FE0)
T19F8 2760:097.024   [0][1]: E0001000 CID B105E00D PID 003BB002 DWT
T19F8 2760:097.024   CPU_ReadMem(32 bytes @ 0xE0002FE0)
T19F8 2760:099.328   [0][2]: E0002000 CID B105E00D PID 002BB003 FPB
T19F8 2760:099.328   CPU_ReadMem(32 bytes @ 0xE0000FE0)
T19F8 2760:101.888   [0][3]: E0000000 CID B105E00D PID 003BB001 ITM
T19F8 2760:101.888   CPU_ReadMem(32 bytes @ 0xE0040FE0)
T19F8 2760:104.704   [0][4]: E0040000 CID B105900D PID C00BB901 ???
T19F8 2760:104.704   CPU_ReadMem(32 bytes @ 0xE0041FE0)
T19F8 2760:107.264   [0][5]: E0041000 CID 00000000 PID 00000000 ???
T19F8 2760:107.776 - 67.885ms returns 0x2BA01477
T19F8 2760:107.776 JLINK_GetDLLVersion()
T19F8 2760:107.776 - 0.003ms returns 83000
T19F8 2760:107.776 JLINK_CORE_GetFound()
T19F8 2760:107.776 - 0.003ms returns 0xE0000FF
T19F8 2760:107.776 JLINK_GetDebugInfo(0x100 = JLINKARM_ROM_TABLE_ADDR_INDEX)
T19F8 2760:107.776   Value=0xE00FF000
T19F8 2760:107.776 - 0.008ms returns 0
T19F8 2760:109.312 JLINK_GetDebugInfo(0x100 = JLINKARM_ROM_TABLE_ADDR_INDEX)
T19F8 2760:109.312   Value=0xE00FF000
T19F8 2760:109.312 - 0.013ms returns 0
T19F8 2760:109.312 JLINK_GetDebugInfo(0x101 = JLINKARM_DEBUG_INFO_ETM_ADDR_INDEX)
T19F8 2760:109.312   Value=0x00000000
T19F8 2760:109.312 - 0.007ms returns 0
T19F8 2760:109.312 JLINK_ReadMemEx(0xE0041FF0, 0x10 Bytes, Flags = 0x02000004)
T19F8 2760:109.568   CPU_ReadMem(16 bytes @ 0xE0041FF0)
T19F8 2760:110.336   Data:  00 00 00 00 00 00 00 00 00 00 00 00 00 00 00 00
T19F8 2760:110.336 - 1.091ms returns 16 (0x10)
T19F8 2760:110.336 JLINK_GetDebugInfo(0x102 = JLINKARM_DEBUG_INFO_MTB_ADDR_INDEX)
T19F8 2760:110.336   Value=0x00000000
T19F8 2760:110.336 - 0.007ms returns 0
T19F8 2760:110.336 JLINK_GetDebugInfo(0x103 = JLINKARM_DEBUG_INFO_TPIU_ADDR_INDEX)
T19F8 2760:110.336   Value=0x00000000
T19F8 2760:110.336 - 0.007ms returns 0
T19F8 2760:110.336 JLINK_ReadMemEx(0xE0040FF0, 0x10 Bytes, Flags = 0x02000004)
T19F8 2760:110.336   CPU_ReadMem(16 bytes @ 0xE0040FF0)
T19F8 2760:111.104   Data:  0D 00 00 00 90 00 00 00 05 00 00 00 B1 00 00 00
T19F8 2760:111.360 - 0.908ms returns 16 (0x10)
T19F8 2760:111.360 JLINK_GetDebugInfo(0x104 = JLINKARM_DEBUG_INFO_ITM_ADDR_INDEX)
T19F8 2760:111.360   Value=0xE0000000
T19F8 2760:111.360 - 0.010ms returns 0
T19F8 2760:111.360 JLINK_GetDebugInfo(0x105 = JLINKARM_DEBUG_INFO_DWT_ADDR_INDEX)
T19F8 2760:111.360   Value=0xE0001000
T19F8 2760:111.360 - 0.007ms returns 0
T19F8 2760:111.360 JLINK_GetDebugInfo(0x106 = JLINKARM_DEBUG_INFO_FPB_ADDR_INDEX)
T19F8 2760:111.360   Value=0xE0002000
T19F8 2760:111.360 - 0.007ms returns 0
T19F8 2760:111.360 JLINK_GetDebugInfo(0x107 = JLINKARM_DEBUG_INFO_NVIC_ADDR_INDEX)
T19F8 2760:111.360   Value=0xE000E000
T19F8 2760:111.360 - 0.006ms returns 0
T19F8 2760:111.360 JLINK_GetDebugInfo(0x10C = JLINKARM_DEBUG_INFO_DBG_ADDR_INDEX)
T19F8 2760:111.360   Value=0xE000EDF0
T19F8 2760:111.360 - 0.006ms returns 0
T19F8 2760:111.360 JLINK_GetDebugInfo(0x01 = Unknown)
T19F8 2760:111.360   Value=0x00000001
T19F8 2760:111.360 - 0.006ms returns 0
T19F8 2760:111.360 JLINK_ReadMemU32(0xE000ED00, 0x1 Items)
T19F8 2760:111.360   CPU_ReadMem(4 bytes @ 0xE000ED00)
T19F8 2760:111.872   Data:  41 C2 0F 41
T19F8 2760:112.128   Debug reg: CPUID
T19F8 2760:112.128 - 0.757ms returns 1 (0x1)
T19F8 2760:112.128 JLINK_GetDebugInfo(0x10F = JLINKARM_DEBUG_INFO_HAS_CORTEX_M_SECURITY_EXT_INDEX)
T19F8 2760:112.128   Value=0x00000000
T19F8 2760:112.128 - 0.006ms returns 0
T19F8 2760:112.128 JLINK_HasError()
T19F8 2760:112.128 JLINK_SetResetType(JLINKARM_CM3_RESET_TYPE_NORMAL)
T19F8 2760:112.128 - 0.003ms returns JLINKARM_CM3_RESET_TYPE_NORMAL
T19F8 2760:112.128 JLINK_Reset()
T19F8 2760:112.128   JLINK_GetResetTypeDesc
T19F8 2760:112.128   - 0.003ms 
T19F8 2760:113.408   Reset type: NORMAL (https://wiki.segger.com/J-Link_Reset_Strategies)
T19F8 2760:113.664   CPU is running
T19F8 2760:113.664   CPU_WriteMem(4 bytes @ 0xE000EDF0)
T19F8 2760:114.432   CPU is running
T19F8 2760:114.432   CPU_WriteMem(4 bytes @ 0xE000EDFC)
T19F8 2760:116.736   Reset: Halt core after reset via DEMCR.VC_CORERESET.
T19F8 2760:118.528   Reset: Reset device via AIRCR.SYSRESETREQ.
T19F8 2760:118.528   CPU is running
T19F8 2760:118.528   CPU_WriteMem(4 bytes @ 0xE000ED0C)
T19F8 2760:187.648   CPU_ReadMem(4 bytes @ 0xE000EDF0)
T19F8 2760:188.416   CPU_ReadMem(4 bytes @ 0xE000EDF0)
T19F8 2760:198.400   CPU_WriteMem(4 bytes @ 0xE000EDFC)
T19F8 2760:216.064   CPU_ReadMem(4 bytes @ 0xE000EDF0)
T19F8 2760:223.744   CPU_WriteMem(4 bytes @ 0xE0002000)
T19F8 2760:224.768   CPU_ReadMem(4 bytes @ 0xE000EDFC)
T19F8 2760:225.536   CPU_ReadMem(4 bytes @ 0xE0001000)
T19F8 2760:226.560 - 114.534ms 
T19F8 2760:226.560 JLINK_Halt()
T19F8 2760:226.560 - 0.009ms returns 0x00
T19F8 2760:226.560 JLINK_ReadMemU32(0xE000EDF0, 0x1 Items)
T19F8 2760:226.816   CPU_ReadMem(4 bytes @ 0xE000EDF0)
T19F8 2760:227.584   Data:  03 00 03 00
T19F8 2760:227.584   Debug reg: DHCSR
T19F8 2760:227.584 - 0.875ms returns 1 (0x1)
T19F8 2760:228.352 JLINK_WriteU32(0xE000EDF0, 0xA05F0003)
T19F8 2760:228.352   Debug reg: DHCSR
T19F8 2760:229.376   CPU_WriteMem(4 bytes @ 0xE000EDF0)
T19F8 2760:230.400 - 2.041ms returns 0 (0x00000000)
T19F8 2760:230.400 JLINK_WriteU32(0xE000EDFC, 0x01000000)
T19F8 2760:230.400   Debug reg: DEMCR
T19F8 2760:230.400   CPU_WriteMem(4 bytes @ 0xE000EDFC)
T19F8 2760:231.424 - 0.949ms returns 0 (0x00000000)
T19F8 2760:242.176 JLINK_GetHWStatus(...)
T19F8 2760:242.688 - 0.293ms returns 0
T19F8 2760:246.784 JLINK_GetNumBPUnits(Type = 0xFFFFFF00)
T19F8 2760:246.784 - 0.010ms returns 0x06
T19F8 2760:246.784 JLINK_GetNumBPUnits(Type = 0xF0)
T19F8 2760:246.784 - 0.003ms returns 0x2000
T19F8 2760:246.784 JLINK_GetNumWPUnits()
T19F8 2760:246.784 - 0.002ms returns 4
T19F8 2760:256.000 JLINK_GetSpeed()
T19F8 2760:256.000 - 0.010ms returns 1000
T19F8 2760:258.560 JLINK_ReadMemU32(0xE000E004, 0x1 Items)
T19F8 2760:258.560   CPU_ReadMem(4 bytes @ 0xE000E004)
T19F8 2760:259.328   Data:  02 00 00 00
T19F8 2760:259.328 - 0.681ms returns 1 (0x1)
T19F8 2760:259.328 JLINK_ReadMemU32(0xE000E004, 0x1 Items)
T19F8 2760:259.328   CPU_ReadMem(4 bytes @ 0xE000E004)
T19F8 2760:260.096   Data:  02 00 00 00
T19F8 2760:260.096 - 0.701ms returns 1 (0x1)
T19F8 2760:260.096 JLINK_WriteMemEx(0xE0001000, 0x0000001C Bytes, Flags = 0x02000004)
T19F8 2760:260.096   Data:  01 00 00 00 00 00 00 00 00 00 00 00 00 00 00 00 ...
T19F8 2760:260.096   CPU_WriteMem(28 bytes @ 0xE0001000)
T19F8 2760:261.376 - 1.317ms returns 0x1C
T19F8 2760:261.376 JLINK_Halt()
T19F8 2760:261.376 - 0.019ms returns 0x00
T19F8 2760:261.376 JLINK_IsHalted()
T19F8 2760:261.376 - 0.021ms returns TRUE
T19F8 2760:269.824 JLINK_WriteMem(0x20000000, 0x13C Bytes, ...)
T19F8 2760:269.824   Data:  00 BE 0A E0 0D 78 2D 06 68 40 08 24 40 00 00 D3 ...
T19F8 2760:270.080   CPU_WriteMem(316 bytes @ 0x20000000)
T19F8 2760:274.688 - 4.970ms returns 0x13C
T19F8 2760:274.688 JLINK_HasError()
T19F8 2760:274.688 JLINK_WriteReg(R0, 0x08000000)
T19F8 2760:274.688 - 0.004ms returns 0
T19F8 2760:274.688 JLINK_WriteReg(R1, 0x007A1200)
T19F8 2760:274.688 - 0.002ms returns 0
T19F8 2760:274.688 JLINK_WriteReg(R2, 0x00000001)
T19F8 2760:274.688 - 0.002ms returns 0
T19F8 2760:274.688 JLINK_WriteReg(R3, 0x00000000)
T19F8 2760:274.688 - 0.002ms returns 0
T19F8 2760:274.944 JLINK_WriteReg(R4, 0x00000000)
T19F8 2760:274.944 - 0.002ms returns 0
T19F8 2760:274.944 JLINK_WriteReg(R5, 0x00000000)
T19F8 2760:274.944 - 0.002ms returns 0
T19F8 2760:274.944 JLINK_WriteReg(R6, 0x00000000)
T19F8 2760:274.944 - 0.002ms returns 0
T19F8 2760:274.944 JLINK_WriteReg(R7, 0x00000000)
T19F8 2760:274.944 - 0.002ms returns 0
T19F8 2760:274.944 JLINK_WriteReg(R8, 0x00000000)
T19F8 2760:274.944 - 0.002ms returns 0
T19F8 2760:274.944 JLINK_WriteReg(R9, 0x20000134)
T19F8 2760:274.944 - 0.002ms returns 0
T19F8 2760:274.944 JLINK_WriteReg(R10, 0x00000000)
T19F8 2760:274.944 - 0.002ms returns 0
T19F8 2760:274.944 JLINK_WriteReg(R11, 0x00000000)
T19F8 2760:274.944 - 0.002ms returns 0
T19F8 2760:274.944 JLINK_WriteReg(R12, 0x00000000)
T19F8 2760:274.944 - 0.003ms returns 0
T19F8 2760:274.944 JLINK_WriteReg(R13 (SP), 0x20001000)
T19F8 2760:274.944 - 0.003ms returns 0
T19F8 2760:274.944 JLINK_WriteReg(R14, 0x20000001)
T19F8 2760:274.944 - 0.002ms returns 0
T19F8 2760:275.456 JLINK_WriteReg(R15 (PC), 0x20000038)
T19F8 2760:275.456 - 0.460ms returns 0
T19F8 2760:275.456 JLINK_WriteReg(XPSR, 0x01000000)
T19F8 2760:275.456 - 0.002ms returns 0
T19F8 2760:275.456 JLINK_WriteReg(MSP, 0x20001000)
T19F8 2760:275.456 - 0.002ms returns 0
T19F8 2760:275.456 JLINK_WriteReg(PSP, 0x20001000)
T19F8 2760:275.456 - 0.002ms returns 0
T19F8 2760:275.456 JLINK_WriteReg(CFBP, 0x00000000)
T19F8 2760:275.456 - 0.002ms returns 0
T19F8 2760:275.456 JLINK_SetBPEx(Addr = 0x20000000, Type = 0xFFFFFFF2)
T19F8 2760:275.456   CPU_ReadMem(2 bytes @ 0x20000000)
T19F8 2760:275.968 - 0.661ms returns 0x00000001
T19F8 2760:276.224 JLINK_Go()
T19F8 2760:276.224   CPU_WriteMem(2 bytes @ 0x20000000)
T19F8 2760:276.992   CPU_ReadMem(4 bytes @ 0xE0001000)
T19F8 2760:277.760   CPU_WriteMem(4 bytes @ 0xE0002008)
T19F8 2760:277.760   CPU_WriteMem(4 bytes @ 0xE000200C)
T19F8 2760:277.760   CPU_WriteMem(4 bytes @ 0xE0002010)
T19F8 2760:277.760   CPU_WriteMem(4 bytes @ 0xE0002014)
T19F8 2760:277.760   CPU_WriteMem(4 bytes @ 0xE0002018)
T19F8 2760:277.760   CPU_WriteMem(4 bytes @ 0xE000201C)
T19F8 2760:280.576   CPU_WriteMem(4 bytes @ 0xE0001004)
T19F8 2760:290.816   Memory map 'after startup completion point' is active
T19F8 2760:290.816 - 14.749ms 
T19F8 2760:290.816 JLINK_IsHalted()
T19F8 2760:297.472   CPU_ReadMem(2 bytes @ 0x20000000)
T19F8 2760:297.984 - 7.272ms returns TRUE
T19F8 2760:297.984 JLINK_ReadReg(R15 (PC))
T19F8 2760:297.984 - 0.005ms returns 0x20000000
T19F8 2760:297.984 JLINK_ClrBPEx(BPHandle = 0x00000001)
T19F8 2760:297.984 - 0.003ms returns 0x00
T19F8 2760:297.984 JLINK_ReadReg(R0)
T19F8 2760:297.984 - 0.003ms returns 0x00000000
T19F8 2760:301.824 JLINK_HasError()
T19F8 2760:301.824 JLINK_WriteReg(R0, 0x08000000)
T19F8 2760:301.824 - 0.005ms returns 0
T19F8 2760:301.824 JLINK_WriteReg(R1, 0x007A1200)
T19F8 2760:301.824 - 0.003ms returns 0
T19F8 2760:301.824 JLINK_WriteReg(R2, 0x00000001)
T19F8 2760:301.824 - 0.035ms returns 0
T19F8 2760:302.080 JLINK_WriteReg(R3, 0x00000000)
T19F8 2760:302.080 - 0.003ms returns 0
T19F8 2760:302.080 JLINK_WriteReg(R4, 0x00000000)
T19F8 2760:302.080 - 0.003ms returns 0
T19F8 2760:302.080 JLINK_WriteReg(R5, 0x00000000)
T19F8 2760:302.080 - 0.003ms returns 0
T19F8 2760:302.080 JLINK_WriteReg(R6, 0x00000000)
T19F8 2760:302.080 - 0.003ms returns 0
T19F8 2760:302.080 JLINK_WriteReg(R7, 0x00000000)
T19F8 2760:302.080 - 0.003ms returns 0
T19F8 2760:302.080 JLINK_WriteReg(R8, 0x00000000)
T19F8 2760:302.080 - 0.003ms returns 0
T19F8 2760:302.080 JLINK_WriteReg(R9, 0x20000134)
T19F8 2760:302.080 - 0.003ms returns 0
T19F8 2760:302.080 JLINK_WriteReg(R10, 0x00000000)
T19F8 2760:302.080 - 0.003ms returns 0
T19F8 2760:302.080 JLINK_WriteReg(R11, 0x00000000)
T19F8 2760:302.080 - 0.003ms returns 0
T19F8 2760:302.080 JLINK_WriteReg(R12, 0x00000000)
T19F8 2760:302.080 - 0.003ms returns 0
T19F8 2760:302.080 JLINK_WriteReg(R13 (SP), 0x20001000)
T19F8 2760:302.080 - 0.003ms returns 0
T19F8 2760:302.080 JLINK_WriteReg(R14, 0x20000001)
T19F8 2760:302.080 - 0.003ms returns 0
T19F8 2760:302.080 JLINK_WriteReg(R15 (PC), 0x2000007A)
T19F8 2760:302.080 - 0.003ms returns 0
T19F8 2760:302.080 JLINK_WriteReg(XPSR, 0x01000000)
T19F8 2760:302.080 - 0.003ms returns 0
T19F8 2760:302.080 JLINK_WriteReg(MSP, 0x20001000)
T19F8 2760:302.080 - 0.003ms returns 0
T19F8 2760:302.080 JLINK_WriteReg(PSP, 0x20001000)
T19F8 2760:302.080 - 0.003ms returns 0
T19F8 2760:302.080 JLINK_WriteReg(CFBP, 0x00000000)
T19F8 2760:302.080 - 0.003ms returns 0
T19F8 2760:302.080 JLINK_SetBPEx(Addr = 0x20000000, Type = 0xFFFFFFF2)
T19F8 2760:302.080 - 0.004ms returns 0x00000002
T19F8 2760:302.080 JLINK_Go()
T19F8 2760:302.080   CPU_ReadMem(4 bytes @ 0xE0001000)
T19F8 2760:308.480 - 6.608ms 
T19F8 2760:308.736 JLINK_IsHalted()
T19F8 2760:309.248 - 0.672ms returns FALSE
T19F8 2760:309.248 JLINK_HasError()
T19F8 2760:355.840 JLINK_IsHalted()
T19F8 2760:362.752   CPU_ReadMem(2 bytes @ 0x20000000)
T19F8 2760:363.520 - 7.672ms returns TRUE
T19F8 2760:363.520 JLINK_ReadReg(R15 (PC))
T19F8 2760:363.520 - 0.005ms returns 0x20000000
T19F8 2760:363.520 JLINK_ClrBPEx(BPHandle = 0x00000002)
T19F8 2760:363.520 - 0.004ms returns 0x00
T19F8 2760:363.520 JLINK_ReadReg(R0)
T19F8 2760:363.520 - 0.003ms returns 0x00000000
T19F8 2760:424.704 JLINK_HasError()
T19F8 2760:424.704 JLINK_WriteReg(R0, 0x00000001)
T19F8 2760:424.704 - 0.006ms returns 0
T19F8 2760:424.704 JLINK_WriteReg(R1, 0x007A1200)
T19F8 2760:424.704 - 0.003ms returns 0
T19F8 2760:424.704 JLINK_WriteReg(R2, 0x00000001)
T19F8 2760:424.704 - 0.002ms returns 0
T19F8 2760:424.704 JLINK_WriteReg(R3, 0x00000000)
T19F8 2760:424.704 - 0.002ms returns 0
T19F8 2760:424.704 JLINK_WriteReg(R4, 0x00000000)
T19F8 2760:424.704 - 0.002ms returns 0
T19F8 2760:424.704 JLINK_WriteReg(R5, 0x00000000)
T19F8 2760:424.704 - 0.002ms returns 0
T19F8 2760:424.704 JLINK_WriteReg(R6, 0x00000000)
T19F8 2760:424.704 - 0.002ms returns 0
T19F8 2760:424.704 JLINK_WriteReg(R7, 0x00000000)
T19F8 2760:424.704 - 0.002ms returns 0
T19F8 2760:424.960 JLINK_WriteReg(R8, 0x00000000)
T19F8 2760:424.960 - 0.002ms returns 0
T19F8 2760:424.960 JLINK_WriteReg(R9, 0x20000134)
T19F8 2760:424.960 - 0.002ms returns 0
T19F8 2760:424.960 JLINK_WriteReg(R10, 0x00000000)
T19F8 2760:424.960 - 0.002ms returns 0
T19F8 2760:424.960 JLINK_WriteReg(R11, 0x00000000)
T19F8 2760:424.960 - 0.002ms returns 0
T19F8 2760:424.960 JLINK_WriteReg(R12, 0x00000000)
T19F8 2760:424.960 - 0.002ms returns 0
T19F8 2760:424.960 JLINK_WriteReg(R13 (SP), 0x20001000)
T19F8 2760:424.960 - 0.003ms returns 0
T19F8 2760:424.960 JLINK_WriteReg(R14, 0x20000001)
T19F8 2760:424.960 - 0.002ms returns 0
T19F8 2760:424.960 JLINK_WriteReg(R15 (PC), 0x2000006C)
T19F8 2760:424.960 - 0.003ms returns 0
T19F8 2760:424.960 JLINK_WriteReg(XPSR, 0x01000000)
T19F8 2760:424.960 - 0.002ms returns 0
T19F8 2760:424.960 JLINK_WriteReg(MSP, 0x20001000)
T19F8 2760:424.960 - 0.002ms returns 0
T19F8 2760:424.960 JLINK_WriteReg(PSP, 0x20001000)
T19F8 2760:424.960 - 0.005ms returns 0
T19F8 2760:424.960 JLINK_WriteReg(CFBP, 0x00000000)
T19F8 2760:424.960 - 0.002ms returns 0
T19F8 2760:424.960 JLINK_SetBPEx(Addr = 0x20000000, Type = 0xFFFFFFF2)
T19F8 2760:424.960 - 0.004ms returns 0x00000003
T19F8 2760:424.960 JLINK_Go()
T19F8 2760:424.960   CPU_ReadMem(4 bytes @ 0xE0001000)
T19F8 2760:432.128 - 7.133ms 
T19F8 2760:432.128 JLINK_IsHalted()
T19F8 2760:439.040   CPU_ReadMem(2 bytes @ 0x20000000)
T19F8 2760:439.808 - 7.747ms returns TRUE
T19F8 2760:439.808 JLINK_ReadReg(R15 (PC))
T19F8 2760:439.808 - 0.011ms returns 0x20000000
T19F8 2760:439.808 JLINK_ClrBPEx(BPHandle = 0x00000003)
T19F8 2760:439.808 - 0.008ms returns 0x00
T19F8 2760:439.808 JLINK_ReadReg(R0)
T19F8 2760:439.808 - 0.007ms returns 0x00000000
T19F8 2760:445.440 JLINK_WriteMem(0x20000000, 0x13C Bytes, ...)
T19F8 2760:445.440   Data:  00 BE 0A E0 0D 78 2D 06 68 40 08 24 40 00 00 D3 ...
T19F8 2760:445.440   CPU_WriteMem(316 bytes @ 0x20000000)
T19F8 2760:450.048 - 4.783ms returns 0x13C
T19F8 2760:450.048 JLINK_HasError()
T19F8 2760:450.048 JLINK_WriteReg(R0, 0x08000000)
T19F8 2760:450.048 - 0.004ms returns 0
T19F8 2760:450.048 JLINK_WriteReg(R1, 0x007A1200)
T19F8 2760:450.048 - 0.002ms returns 0
T19F8 2760:450.048 JLINK_WriteReg(R2, 0x00000002)
T19F8 2760:450.048 - 0.002ms returns 0
T19F8 2760:450.048 JLINK_WriteReg(R3, 0x00000000)
T19F8 2760:450.048 - 0.002ms returns 0
T19F8 2760:450.048 JLINK_WriteReg(R4, 0x00000000)
T19F8 2760:450.048 - 0.002ms returns 0
T19F8 2760:450.048 JLINK_WriteReg(R5, 0x00000000)
T19F8 2760:450.304 - 0.002ms returns 0
T19F8 2760:450.304 JLINK_WriteReg(R6, 0x00000000)
T19F8 2760:450.304 - 0.002ms returns 0
T19F8 2760:450.304 JLINK_WriteReg(R7, 0x00000000)
T19F8 2760:450.304 - 0.002ms returns 0
T19F8 2760:450.304 JLINK_WriteReg(R8, 0x00000000)
T19F8 2760:450.304 - 0.002ms returns 0
T19F8 2760:450.304 JLINK_WriteReg(R9, 0x20000134)
T19F8 2760:450.304 - 0.002ms returns 0
T19F8 2760:450.304 JLINK_WriteReg(R10, 0x00000000)
T19F8 2760:450.304 - 0.002ms returns 0
T19F8 2760:450.304 JLINK_WriteReg(R11, 0x00000000)
T19F8 2760:450.304 - 0.002ms returns 0
T19F8 2760:450.304 JLINK_WriteReg(R12, 0x00000000)
T19F8 2760:450.304 - 0.002ms returns 0
T19F8 2760:450.304 JLINK_WriteReg(R13 (SP), 0x20001000)
T19F8 2760:450.304 - 0.003ms returns 0
T19F8 2760:450.304 JLINK_WriteReg(R14, 0x20000001)
T19F8 2760:450.304 - 0.003ms returns 0
T19F8 2760:450.304 JLINK_WriteReg(R15 (PC), 0x20000038)
T19F8 2760:450.304 - 0.003ms returns 0
T19F8 2760:450.304 JLINK_WriteReg(XPSR, 0x01000000)
T19F8 2760:450.304 - 0.002ms returns 0
T19F8 2760:450.304 JLINK_WriteReg(MSP, 0x20001000)
T19F8 2760:450.304 - 0.002ms returns 0
T19F8 2760:450.304 JLINK_WriteReg(PSP, 0x20001000)
T19F8 2760:450.304 - 0.002ms returns 0
T19F8 2760:450.304 JLINK_WriteReg(CFBP, 0x00000000)
T19F8 2760:450.304 - 0.002ms returns 0
T19F8 2760:450.304 JLINK_SetBPEx(Addr = 0x20000000, Type = 0xFFFFFFF2)
T19F8 2760:450.304   CPU_ReadMem(2 bytes @ 0x20000000)
T19F8 2760:451.072 - 0.761ms returns 0x00000004
T19F8 2760:451.072 JLINK_Go()
T19F8 2760:451.072   CPU_WriteMem(2 bytes @ 0x20000000)
T19F8 2760:451.840   CPU_ReadMem(4 bytes @ 0xE0001000)
T19F8 2760:458.752 - 7.932ms 
T19F8 2760:459.008 JLINK_IsHalted()
T19F8 2760:466.688   CPU_ReadMem(2 bytes @ 0x20000000)
T19F8 2760:467.456 - 8.445ms returns TRUE
T19F8 2760:467.456 JLINK_ReadReg(R15 (PC))
T19F8 2760:467.712 - 0.035ms returns 0x20000000
T19F8 2760:467.712 JLINK_ClrBPEx(BPHandle = 0x00000004)
T19F8 2760:467.712 - 0.020ms returns 0x00
T19F8 2760:467.712 JLINK_ReadReg(R0)
T19F8 2760:467.712 - 0.015ms returns 0x00000000
T19F8 2760:478.976 JLINK_WriteMem(0x2000013C, 0x2C4 Bytes, ...)
T19F8 2760:478.976   Data:  D0 6F 00 20 65 01 00 08 49 36 00 08 23 21 00 08 ...
T19F8 2760:478.976   CPU_WriteMem(708 bytes @ 0x2000013C)
T19F8 2760:488.960 - 9.968ms returns 0x2C4
T19F8 2760:488.960 JLINK_WriteMem(0x20000400, 0x13C Bytes, ...)
T19F8 2760:488.960   Data:  62 B3 01 9A 01 2A 4F EA 07 52 15 DC 00 1B 61 EB ...
T19F8 2760:488.960   CPU_WriteMem(316 bytes @ 0x20000400)
T19F8 2760:493.568 - 4.785ms returns 0x13C
T19F8 2760:493.568 JLINK_HasError()
T19F8 2760:493.824 JLINK_WriteReg(R0, 0x08000000)
T19F8 2760:493.824 - 0.011ms returns 0
T19F8 2760:493.824 JLINK_WriteReg(R1, 0x00000400)
T19F8 2760:493.824 - 0.007ms returns 0
T19F8 2760:493.824 JLINK_WriteReg(R2, 0x2000013C)
T19F8 2760:493.824 - 0.007ms returns 0
T19F8 2760:493.824 JLINK_WriteReg(R3, 0x00000000)
T19F8 2760:493.824 - 0.007ms returns 0
T19F8 2760:493.824 JLINK_WriteReg(R4, 0x00000000)
T19F8 2760:493.824 - 0.007ms returns 0
T19F8 2760:493.824 JLINK_WriteReg(R5, 0x00000000)
T19F8 2760:493.824 - 0.007ms returns 0
T19F8 2760:493.824 JLINK_WriteReg(R6, 0x00000000)
T19F8 2760:493.824 - 0.007ms returns 0
T19F8 2760:493.824 JLINK_WriteReg(R7, 0x00000000)
T19F8 2760:493.824 - 0.007ms returns 0
T19F8 2760:493.824 JLINK_WriteReg(R8, 0x00000000)
T19F8 2760:493.824 - 0.007ms returns 0
T19F8 2760:493.824 JLINK_WriteReg(R9, 0x20000134)
T19F8 2760:493.824 - 0.007ms returns 0
T19F8 2760:493.824 JLINK_WriteReg(R10, 0x00000000)
T19F8 2760:493.824 - 0.007ms returns 0
T19F8 2760:493.824 JLINK_WriteReg(R11, 0x00000000)
T19F8 2760:493.824 - 0.007ms returns 0
T19F8 2760:494.080 JLINK_WriteReg(R12, 0x00000000)
T19F8 2760:494.080 - 0.008ms returns 0
T19F8 2760:494.080 JLINK_WriteReg(R13 (SP), 0x20001000)
T19F8 2760:494.080 - 0.008ms returns 0
T19F8 2760:494.080 JLINK_WriteReg(R14, 0x20000001)
T19F8 2760:494.080 - 0.007ms returns 0
T19F8 2760:494.080 JLINK_WriteReg(R15 (PC), 0x200000D8)
T19F8 2760:494.080 - 0.007ms returns 0
T19F8 2760:494.080 JLINK_WriteReg(XPSR, 0x01000000)
T19F8 2760:494.080 - 0.007ms returns 0
T19F8 2760:494.080 JLINK_WriteReg(MSP, 0x20001000)
T19F8 2760:494.080 - 0.007ms returns 0
T19F8 2760:494.080 JLINK_WriteReg(PSP, 0x20001000)
T19F8 2760:494.080 - 0.007ms returns 0
T19F8 2760:494.080 JLINK_WriteReg(CFBP, 0x00000000)
T19F8 2760:494.080 - 0.007ms returns 0
T19F8 2760:494.080 JLINK_SetBPEx(Addr = 0x20000000, Type = 0xFFFFFFF2)
T19F8 2760:494.080 - 0.009ms returns 0x00000005
T19F8 2760:494.080 JLINK_Go()
T19F8 2760:494.080   CPU_ReadMem(4 bytes @ 0xE0001000)
T19F8 2760:500.992 - 6.811ms 
T19F8 2760:500.992 JLINK_IsHalted()
T19F8 2760:501.760 - 0.878ms returns FALSE
T19F8 2760:501.760 JLINK_HasError()
T19F8 2760:530.176 JLINK_IsHalted()
T19F8 2760:537.088   CPU_ReadMem(2 bytes @ 0x20000000)
T19F8 2760:537.856 - 7.728ms returns TRUE
T19F8 2760:537.856 JLINK_ReadReg(R15 (PC))
T19F8 2760:537.856 - 0.005ms returns 0x20000000
T19F8 2760:537.856 JLINK_ClrBPEx(BPHandle = 0x00000005)
T19F8 2760:537.856 - 0.003ms returns 0x00
T19F8 2760:537.856 JLINK_ReadReg(R0)
T19F8 2760:537.856 - 0.003ms returns 0x00000000
T19F8 2760:538.112 JLINK_WriteMem(0x2000013C, 0x2C4 Bytes, ...)
T19F8 2760:538.112   Data:  03 00 63 EB 01 01 10 BD 70 B5 C1 F3 0A 52 01 F0 ...
T19F8 2760:538.112   CPU_WriteMem(708 bytes @ 0x2000013C)
T19F8 2760:548.352 - 10.198ms returns 0x2C4
T19F8 2760:548.352 JLINK_WriteMem(0x20000400, 0x13C Bytes, ...)
T19F8 2760:548.352   Data:  03 48 01 68 21 F0 04 01 01 60 01 F0 17 BE 00 00 ...
T19F8 2760:548.352   CPU_WriteMem(316 bytes @ 0x20000400)
T19F8 2760:553.216 - 4.821ms returns 0x13C
T19F8 2760:553.216 JLINK_HasError()
T19F8 2760:553.216 JLINK_WriteReg(R0, 0x08000400)
T19F8 2760:553.216 - 0.006ms returns 0
T19F8 2760:553.216 JLINK_WriteReg(R1, 0x00000400)
T19F8 2760:553.216 - 0.003ms returns 0
T19F8 2760:553.216 JLINK_WriteReg(R2, 0x2000013C)
T19F8 2760:553.216 - 0.003ms returns 0
T19F8 2760:553.216 JLINK_WriteReg(R3, 0x00000000)
T19F8 2760:553.216 - 0.003ms returns 0
T19F8 2760:553.216 JLINK_WriteReg(R4, 0x00000000)
T19F8 2760:553.216 - 0.003ms returns 0
T19F8 2760:553.216 JLINK_WriteReg(R5, 0x00000000)
T19F8 2760:553.216 - 0.003ms returns 0
T19F8 2760:553.216 JLINK_WriteReg(R6, 0x00000000)
T19F8 2760:553.216 - 0.003ms returns 0
T19F8 2760:553.216 JLINK_WriteReg(R7, 0x00000000)
T19F8 2760:553.216 - 0.003ms returns 0
T19F8 2760:553.216 JLINK_WriteReg(R8, 0x00000000)
T19F8 2760:553.216 - 0.007ms returns 0
T19F8 2760:553.216 JLINK_WriteReg(R9, 0x20000134)
T19F8 2760:553.216 - 0.003ms returns 0
T19F8 2760:553.216 JLINK_WriteReg(R10, 0x00000000)
T19F8 2760:553.216 - 0.004ms returns 0
T19F8 2760:553.216 JLINK_WriteReg(R11, 0x00000000)
T19F8 2760:553.216 - 0.004ms returns 0
T19F8 2760:553.216 JLINK_WriteReg(R12, 0x00000000)
T19F8 2760:553.216 - 0.004ms returns 0
T19F8 2760:553.216 JLINK_WriteReg(R13 (SP), 0x20001000)
T19F8 2760:553.216 - 0.004ms returns 0
T19F8 2760:553.216 JLINK_WriteReg(R14, 0x20000001)
T19F8 2760:553.216 - 0.004ms returns 0
T19F8 2760:553.216 JLINK_WriteReg(R15 (PC), 0x200000D8)
T19F8 2760:553.216 - 0.004ms returns 0
T19F8 2760:553.216 JLINK_WriteReg(XPSR, 0x01000000)
T19F8 2760:553.216 - 0.004ms returns 0
T19F8 2760:553.216 JLINK_WriteReg(MSP, 0x20001000)
T19F8 2760:553.216 - 0.004ms returns 0
T19F8 2760:553.216 JLINK_WriteReg(PSP, 0x20001000)
T19F8 2760:553.216 - 0.004ms returns 0
T19F8 2760:553.216 JLINK_WriteReg(CFBP, 0x00000000)
T19F8 2760:553.472 - 0.004ms returns 0
T19F8 2760:553.472 JLINK_SetBPEx(Addr = 0x20000000, Type = 0xFFFFFFF2)
T19F8 2760:553.472 - 0.005ms returns 0x00000006
T19F8 2760:553.472 JLINK_Go()
T19F8 2760:553.472   CPU_ReadMem(4 bytes @ 0xE0001000)
T19F8 2760:560.384 - 7.136ms 
T19F8 2760:560.640 JLINK_IsHalted()
T19F8 2760:561.152 - 0.692ms returns FALSE
T19F8 2760:561.152 JLINK_HasError()
T19F8 2760:576.512 JLINK_IsHalted()
T19F8 2760:583.168   CPU_ReadMem(2 bytes @ 0x20000000)
T19F8 2760:583.680 - 7.290ms returns TRUE
T19F8 2760:583.680 JLINK_ReadReg(R15 (PC))
T19F8 2760:583.680 - 0.010ms returns 0x20000000
T19F8 2760:583.680 JLINK_ClrBPEx(BPHandle = 0x00000006)
T19F8 2760:583.680 - 0.009ms returns 0x00
T19F8 2760:583.936 JLINK_ReadReg(R0)
T19F8 2760:583.936 - 0.008ms returns 0x00000000
T19F8 2760:584.704 JLINK_WriteMem(0x2000013C, 0x2C4 Bytes, ...)
T19F8 2760:584.704   Data:  05 F1 08 01 8D F8 04 30 40 28 06 D0 2F 28 08 D0 ...
T19F8 2760:584.704   CPU_WriteMem(708 bytes @ 0x2000013C)
T19F8 2760:594.688 - 9.960ms returns 0x2C4
T19F8 2760:594.688 JLINK_WriteMem(0x20000400, 0x13C Bytes, ...)
T19F8 2760:594.688   Data:  22 B0 BD E8 F0 87 30 68 00 28 30 68 08 BF 40 1C ...
T19F8 2760:594.688   CPU_WriteMem(316 bytes @ 0x20000400)
T19F8 2760:599.552 - 4.904ms returns 0x13C
T19F8 2760:599.552 JLINK_HasError()
T19F8 2760:599.552 JLINK_WriteReg(R0, 0x08000800)
T19F8 2760:599.552 - 0.012ms returns 0
T19F8 2760:599.552 JLINK_WriteReg(R1, 0x00000400)
T19F8 2760:599.808 - 0.007ms returns 0
T19F8 2760:599.808 JLINK_WriteReg(R2, 0x2000013C)
T19F8 2760:599.808 - 0.007ms returns 0
T19F8 2760:599.808 JLINK_WriteReg(R3, 0x00000000)
T19F8 2760:599.808 - 0.007ms returns 0
T19F8 2760:599.808 JLINK_WriteReg(R4, 0x00000000)
T19F8 2760:599.808 - 0.007ms returns 0
T19F8 2760:599.808 JLINK_WriteReg(R5, 0x00000000)
T19F8 2760:599.808 - 0.007ms returns 0
T19F8 2760:599.808 JLINK_WriteReg(R6, 0x00000000)
T19F8 2760:599.808 - 0.007ms returns 0
T19F8 2760:599.808 JLINK_WriteReg(R7, 0x00000000)
T19F8 2760:599.808 - 0.007ms returns 0
T19F8 2760:599.808 JLINK_WriteReg(R8, 0x00000000)
T19F8 2760:599.808 - 0.007ms returns 0
T19F8 2760:599.808 JLINK_WriteReg(R9, 0x20000134)
T19F8 2760:599.808 - 0.007ms returns 0
T19F8 2760:599.808 JLINK_WriteReg(R10, 0x00000000)
T19F8 2760:599.808 - 0.007ms returns 0
T19F8 2760:599.808 JLINK_WriteReg(R11, 0x00000000)
T19F8 2760:599.808 - 0.007ms returns 0
T19F8 2760:599.808 JLINK_WriteReg(R12, 0x00000000)
T19F8 2760:599.808 - 0.007ms returns 0
T19F8 2760:599.808 JLINK_WriteReg(R13 (SP), 0x20001000)
T19F8 2760:599.808 - 0.008ms returns 0
T19F8 2760:599.808 JLINK_WriteReg(R14, 0x20000001)
T19F8 2760:600.064 - 0.007ms returns 0
T19F8 2760:600.064 JLINK_WriteReg(R15 (PC), 0x200000D8)
T19F8 2760:600.064 - 0.008ms returns 0
T19F8 2760:600.064 JLINK_WriteReg(XPSR, 0x01000000)
T19F8 2760:600.064 - 0.007ms returns 0
T19F8 2760:600.064 JLINK_WriteReg(MSP, 0x20001000)
T19F8 2760:600.064 - 0.007ms returns 0
T19F8 2760:600.064 JLINK_WriteReg(PSP, 0x20001000)
T19F8 2760:600.064 - 0.066ms returns 0
T19F8 2760:600.064 JLINK_WriteReg(CFBP, 0x00000000)
T19F8 2760:600.064 - 0.007ms returns 0
T19F8 2760:600.064 JLINK_SetBPEx(Addr = 0x20000000, Type = 0xFFFFFFF2)
T19F8 2760:600.064 - 0.009ms returns 0x00000007
T19F8 2760:600.064 JLINK_Go()
T19F8 2760:600.064   CPU_ReadMem(4 bytes @ 0xE0001000)
T19F8 2760:607.232 - 7.339ms 
T19F8 2760:607.232 JLINK_IsHalted()
T19F8 2760:608.256 - 0.810ms returns FALSE
T19F8 2760:608.256 JLINK_HasError()
T19F8 2760:623.360 JLINK_IsHalted()
T19F8 2760:630.272   CPU_ReadMem(2 bytes @ 0x20000000)
T19F8 2760:630.784 - 7.729ms returns TRUE
T19F8 2760:630.784 JLINK_ReadReg(R15 (PC))
T19F8 2760:630.784 - 0.006ms returns 0x20000000
T19F8 2760:630.784 JLINK_ClrBPEx(BPHandle = 0x00000007)
T19F8 2760:630.784 - 0.005ms returns 0x00
T19F8 2760:630.784 JLINK_ReadReg(R0)
T19F8 2760:630.784 - 0.005ms returns 0x00000000
T19F8 2760:631.552 JLINK_WriteMem(0x2000013C, 0x2C4 Bytes, ...)
T19F8 2760:631.552   Data:  11 B0 30 BD EF F3 10 84 72 B6 28 43 08 80 0D 49 ...
T19F8 2760:631.552   CPU_WriteMem(708 bytes @ 0x2000013C)
T19F8 2760:641.536 - 10.042ms returns 0x2C4
T19F8 2760:641.536 JLINK_WriteMem(0x20000400, 0x13C Bytes, ...)
T19F8 2760:641.536   Data:  20 46 00 F0 A5 FF 00 28 1C BF 01 20 BD E8 F0 81 ...
T19F8 2760:641.536   CPU_WriteMem(316 bytes @ 0x20000400)
T19F8 2760:646.400 - 4.896ms returns 0x13C
T19F8 2760:646.400 JLINK_HasError()
T19F8 2760:646.400 JLINK_WriteReg(R0, 0x08000C00)
T19F8 2760:646.400 - 0.009ms returns 0
T19F8 2760:646.400 JLINK_WriteReg(R1, 0x00000400)
T19F8 2760:646.400 - 0.007ms returns 0
T19F8 2760:646.400 JLINK_WriteReg(R2, 0x2000013C)
T19F8 2760:646.400 - 0.007ms returns 0
T19F8 2760:646.400 JLINK_WriteReg(R3, 0x00000000)
T19F8 2760:646.400 - 0.007ms returns 0
T19F8 2760:646.400 JLINK_WriteReg(R4, 0x00000000)
T19F8 2760:646.400 - 0.007ms returns 0
T19F8 2760:646.400 JLINK_WriteReg(R5, 0x00000000)
T19F8 2760:646.400 - 0.007ms returns 0
T19F8 2760:646.400 JLINK_WriteReg(R6, 0x00000000)
T19F8 2760:646.400 - 0.007ms returns 0
T19F8 2760:646.400 JLINK_WriteReg(R7, 0x00000000)
T19F8 2760:646.400 - 0.007ms returns 0
T19F8 2760:646.656 JLINK_WriteReg(R8, 0x00000000)
T19F8 2760:646.656 - 0.007ms returns 0
T19F8 2760:646.656 JLINK_WriteReg(R9, 0x20000134)
T19F8 2760:646.656 - 0.007ms returns 0
T19F8 2760:646.656 JLINK_WriteReg(R10, 0x00000000)
T19F8 2760:646.656 - 0.007ms returns 0
T19F8 2760:646.656 JLINK_WriteReg(R11, 0x00000000)
T19F8 2760:646.656 - 0.007ms returns 0
T19F8 2760:646.656 JLINK_WriteReg(R12, 0x00000000)
T19F8 2760:646.656 - 0.007ms returns 0
T19F8 2760:646.656 JLINK_WriteReg(R13 (SP), 0x20001000)
T19F8 2760:646.656 - 0.008ms returns 0
T19F8 2760:646.656 JLINK_WriteReg(R14, 0x20000001)
T19F8 2760:646.656 - 0.007ms returns 0
T19F8 2760:646.656 JLINK_WriteReg(R15 (PC), 0x200000D8)
T19F8 2760:646.656 - 0.007ms returns 0
T19F8 2760:646.656 JLINK_WriteReg(XPSR, 0x01000000)
T19F8 2760:646.656 - 0.007ms returns 0
T19F8 2760:646.656 JLINK_WriteReg(MSP, 0x20001000)
T19F8 2760:646.656 - 0.007ms returns 0
T19F8 2760:646.656 JLINK_WriteReg(PSP, 0x20001000)
T19F8 2760:646.656 - 0.007ms returns 0
T19F8 2760:646.656 JLINK_WriteReg(CFBP, 0x00000000)
T19F8 2760:646.656 - 0.007ms returns 0
T19F8 2760:646.656 JLINK_SetBPEx(Addr = 0x20000000, Type = 0xFFFFFFF2)
T19F8 2760:646.912 - 0.009ms returns 0x00000008
T19F8 2760:646.912 JLINK_Go()
T19F8 2760:646.912   CPU_ReadMem(4 bytes @ 0xE0001000)
T19F8 2760:654.080 - 7.161ms 
T19F8 2760:654.080 JLINK_IsHalted()
T19F8 2760:655.104 - 1.066ms returns FALSE
T19F8 2760:655.104 JLINK_HasError()
T19F8 2760:669.696 JLINK_IsHalted()
T19F8 2760:676.608   CPU_ReadMem(2 bytes @ 0x20000000)
T19F8 2760:677.376 - 7.869ms returns TRUE
T19F8 2760:677.376 JLINK_ReadReg(R15 (PC))
T19F8 2760:677.376 - 0.011ms returns 0x20000000
T19F8 2760:677.376 JLINK_ClrBPEx(BPHandle = 0x00000008)
T19F8 2760:677.632 - 0.008ms returns 0x00
T19F8 2760:677.632 JLINK_ReadReg(R0)
T19F8 2760:677.632 - 0.007ms returns 0x00000000
T19F8 2760:678.144 JLINK_WriteMem(0x2000013C, 0x2C4 Bytes, ...)
T19F8 2760:678.400   Data:  09 09 6F F0 0A 02 51 43 00 EB 41 00 07 EB 80 20 ...
T19F8 2760:678.400   CPU_WriteMem(708 bytes @ 0x2000013C)
T19F8 2760:688.384 - 10.281ms returns 0x2C4
T19F8 2760:688.384 JLINK_WriteMem(0x20000400, 0x13C Bytes, ...)
T19F8 2760:688.384   Data:  CB AE 4F F0 00 00 BD E8 F0 9F 00 00 20 40 00 20 ...
T19F8 2760:688.640   CPU_WriteMem(316 bytes @ 0x20000400)
T19F8 2760:693.248 - 4.886ms returns 0x13C
T19F8 2760:693.504 JLINK_HasError()
T19F8 2760:693.504 JLINK_WriteReg(R0, 0x08001000)
T19F8 2760:693.504 - 0.007ms returns 0
T19F8 2760:693.504 JLINK_WriteReg(R1, 0x00000400)
T19F8 2760:693.504 - 0.004ms returns 0
T19F8 2760:693.504 JLINK_WriteReg(R2, 0x2000013C)
T19F8 2760:693.504 - 0.004ms returns 0
T19F8 2760:693.504 JLINK_WriteReg(R3, 0x00000000)
T19F8 2760:693.504 - 0.004ms returns 0
T19F8 2760:693.504 JLINK_WriteReg(R4, 0x00000000)
T19F8 2760:693.504 - 0.005ms returns 0
T19F8 2760:693.504 JLINK_WriteReg(R5, 0x00000000)
T19F8 2760:693.504 - 0.004ms returns 0
T19F8 2760:693.504 JLINK_WriteReg(R6, 0x00000000)
T19F8 2760:693.504 - 0.004ms returns 0
T19F8 2760:693.504 JLINK_WriteReg(R7, 0x00000000)
T19F8 2760:693.504 - 0.004ms returns 0
T19F8 2760:693.504 JLINK_WriteReg(R8, 0x00000000)
T19F8 2760:693.504 - 0.004ms returns 0
T19F8 2760:693.504 JLINK_WriteReg(R9, 0x20000134)
T19F8 2760:693.504 - 0.004ms returns 0
T19F8 2760:693.504 JLINK_WriteReg(R10, 0x00000000)
T19F8 2760:693.504 - 0.004ms returns 0
T19F8 2760:693.504 JLINK_WriteReg(R11, 0x00000000)
T19F8 2760:693.504 - 0.004ms returns 0
T19F8 2760:693.504 JLINK_WriteReg(R12, 0x00000000)
T19F8 2760:693.504 - 0.004ms returns 0
T19F8 2760:693.504 JLINK_WriteReg(R13 (SP), 0x20001000)
T19F8 2760:693.504 - 0.004ms returns 0
T19F8 2760:693.504 JLINK_WriteReg(R14, 0x20000001)
T19F8 2760:693.504 - 0.004ms returns 0
T19F8 2760:693.504 JLINK_WriteReg(R15 (PC), 0x200000D8)
T19F8 2760:693.504 - 0.004ms returns 0
T19F8 2760:693.504 JLINK_WriteReg(XPSR, 0x01000000)
T19F8 2760:693.504 - 0.004ms returns 0
T19F8 2760:693.504 JLINK_WriteReg(MSP, 0x20001000)
T19F8 2760:693.504 - 0.004ms returns 0
T19F8 2760:693.760 JLINK_WriteReg(PSP, 0x20001000)
T19F8 2760:693.760 - 0.004ms returns 0
T19F8 2760:693.760 JLINK_WriteReg(CFBP, 0x00000000)
T19F8 2760:693.760 - 0.004ms returns 0
T19F8 2760:693.760 JLINK_SetBPEx(Addr = 0x20000000, Type = 0xFFFFFFF2)
T19F8 2760:693.760 - 0.005ms returns 0x00000009
T19F8 2760:693.760 JLINK_Go()
T19F8 2760:693.760   CPU_ReadMem(4 bytes @ 0xE0001000)
T19F8 2760:700.416 - 6.900ms 
T19F8 2760:700.416 JLINK_IsHalted()
T19F8 2760:701.440 - 0.934ms returns FALSE
T19F8 2760:701.440 JLINK_HasError()
T19F8 2760:716.800 JLINK_IsHalted()
T19F8 2760:724.224   CPU_ReadMem(2 bytes @ 0x20000000)
T19F8 2760:724.992 - 8.092ms returns TRUE
T19F8 2760:724.992 JLINK_ReadReg(R15 (PC))
T19F8 2760:724.992 - 0.012ms returns 0x20000000
T19F8 2760:724.992 JLINK_ClrBPEx(BPHandle = 0x00000009)
T19F8 2760:724.992 - 0.008ms returns 0x00
T19F8 2760:724.992 JLINK_ReadReg(R0)
T19F8 2760:724.992 - 0.007ms returns 0x00000000
T19F8 2760:726.016 JLINK_WriteMem(0x2000013C, 0x2C4 Bytes, ...)
T19F8 2760:726.016   Data:  F9 D0 28 46 05 F0 2F FA DF F8 40 80 60 F3 0F 06 ...
T19F8 2760:726.016   CPU_WriteMem(708 bytes @ 0x2000013C)
T19F8 2760:736.000 - 10.141ms returns 0x2C4
T19F8 2760:736.256 JLINK_WriteMem(0x20000400, 0x13C Bytes, ...)
T19F8 2760:736.256   Data:  61 1A B0 EE 43 0A 86 ED 01 1A 01 F0 E3 F9 83 E0 ...
T19F8 2760:736.256   CPU_WriteMem(316 bytes @ 0x20000400)
T19F8 2760:741.120 - 4.949ms returns 0x13C
T19F8 2760:741.120 JLINK_HasError()
T19F8 2760:741.120 JLINK_WriteReg(R0, 0x08001400)
T19F8 2760:741.120 - 0.012ms returns 0
T19F8 2760:741.120 JLINK_WriteReg(R1, 0x00000400)
T19F8 2760:741.120 - 0.008ms returns 0
T19F8 2760:741.120 JLINK_WriteReg(R2, 0x2000013C)
T19F8 2760:741.120 - 0.007ms returns 0
T19F8 2760:741.120 JLINK_WriteReg(R3, 0x00000000)
T19F8 2760:741.120 - 0.008ms returns 0
T19F8 2760:741.120 JLINK_WriteReg(R4, 0x00000000)
T19F8 2760:741.120 - 0.007ms returns 0
T19F8 2760:741.120 JLINK_WriteReg(R5, 0x00000000)
T19F8 2760:741.376 - 0.011ms returns 0
T19F8 2760:741.376 JLINK_WriteReg(R6, 0x00000000)
T19F8 2760:741.376 - 0.008ms returns 0
T19F8 2760:741.376 JLINK_WriteReg(R7, 0x00000000)
T19F8 2760:741.376 - 0.007ms returns 0
T19F8 2760:741.376 JLINK_WriteReg(R8, 0x00000000)
T19F8 2760:741.376 - 0.007ms returns 0
T19F8 2760:741.376 JLINK_WriteReg(R9, 0x20000134)
T19F8 2760:741.376 - 0.008ms returns 0
T19F8 2760:741.376 JLINK_WriteReg(R10, 0x00000000)
T19F8 2760:741.376 - 0.007ms returns 0
T19F8 2760:741.376 JLINK_WriteReg(R11, 0x00000000)
T19F8 2760:741.376 - 0.007ms returns 0
T19F8 2760:741.376 JLINK_WriteReg(R12, 0x00000000)
T19F8 2760:741.376 - 0.008ms returns 0
T19F8 2760:741.376 JLINK_WriteReg(R13 (SP), 0x20001000)
T19F8 2760:741.376 - 0.008ms returns 0
T19F8 2760:741.376 JLINK_WriteReg(R14, 0x20000001)
T19F8 2760:741.376 - 0.007ms returns 0
T19F8 2760:741.376 JLINK_WriteReg(R15 (PC), 0x200000D8)
T19F8 2760:741.376 - 0.007ms returns 0
T19F8 2760:741.376 JLINK_WriteReg(XPSR, 0x01000000)
T19F8 2760:741.376 - 0.007ms returns 0
T19F8 2760:741.376 JLINK_WriteReg(MSP, 0x20001000)
T19F8 2760:741.376 - 0.007ms returns 0
T19F8 2760:741.376 JLINK_WriteReg(PSP, 0x20001000)
T19F8 2760:741.376 - 0.007ms returns 0
T19F8 2760:741.376 JLINK_WriteReg(CFBP, 0x00000000)
T19F8 2760:741.376 - 0.029ms returns 0
T19F8 2760:741.376 JLINK_SetBPEx(Addr = 0x20000000, Type = 0xFFFFFFF2)
T19F8 2760:741.376 - 0.010ms returns 0x0000000A
T19F8 2760:741.376 JLINK_Go()
T19F8 2760:741.376   CPU_ReadMem(4 bytes @ 0xE0001000)
T19F8 2760:748.544 - 7.127ms 
T19F8 2760:748.544 JLINK_IsHalted()
T19F8 2760:749.312 - 0.643ms returns FALSE
T19F8 2760:749.312 JLINK_HasError()
T19F8 2760:764.160 JLINK_IsHalted()
T19F8 2760:771.072   CPU_ReadMem(2 bytes @ 0x20000000)
T19F8 2760:771.840 - 7.496ms returns TRUE
T19F8 2760:771.840 JLINK_ReadReg(R15 (PC))
T19F8 2760:771.840 - 0.017ms returns 0x20000000
T19F8 2760:771.840 JLINK_ClrBPEx(BPHandle = 0x0000000A)
T19F8 2760:771.840 - 0.003ms returns 0x00
T19F8 2760:771.840 JLINK_ReadReg(R0)
T19F8 2760:771.840 - 0.003ms returns 0x00000000
T19F8 2760:772.096 JLINK_WriteMem(0x2000013C, 0x2C4 Bytes, ...)
T19F8 2760:772.096   Data:  00 00 00 00 DB 0F C9 41 DB 0F C9 40 60 3C 00 20 ...
T19F8 2760:772.096   CPU_WriteMem(708 bytes @ 0x2000013C)
T19F8 2760:782.080 - 9.994ms returns 0x2C4
T19F8 2760:782.336 JLINK_WriteMem(0x20000400, 0x13C Bytes, ...)
T19F8 2760:782.336   Data:  B9 F5 96 7F 98 BF 00 F5 96 70 00 D8 80 B2 B0 F5 ...
T19F8 2760:782.336   CPU_WriteMem(316 bytes @ 0x20000400)
T19F8 2760:786.944 - 4.787ms returns 0x13C
T19F8 2760:786.944 JLINK_HasError()
T19F8 2760:786.944 JLINK_WriteReg(R0, 0x08001800)
T19F8 2760:786.944 - 0.005ms returns 0
T19F8 2760:786.944 JLINK_WriteReg(R1, 0x00000400)
T19F8 2760:786.944 - 0.003ms returns 0
T19F8 2760:786.944 JLINK_WriteReg(R2, 0x2000013C)
T19F8 2760:786.944 - 0.003ms returns 0
T19F8 2760:786.944 JLINK_WriteReg(R3, 0x00000000)
T19F8 2760:786.944 - 0.003ms returns 0
T19F8 2760:786.944 JLINK_WriteReg(R4, 0x00000000)
T19F8 2760:786.944 - 0.003ms returns 0
T19F8 2760:787.200 JLINK_WriteReg(R5, 0x00000000)
T19F8 2760:787.200 - 0.003ms returns 0
T19F8 2760:787.200 JLINK_WriteReg(R6, 0x00000000)
T19F8 2760:787.200 - 0.003ms returns 0
T19F8 2760:787.200 JLINK_WriteReg(R7, 0x00000000)
T19F8 2760:787.200 - 0.003ms returns 0
T19F8 2760:787.200 JLINK_WriteReg(R8, 0x00000000)
T19F8 2760:787.200 - 0.003ms returns 0
T19F8 2760:787.200 JLINK_WriteReg(R9, 0x20000134)
T19F8 2760:787.200 - 0.003ms returns 0
T19F8 2760:787.200 JLINK_WriteReg(R10, 0x00000000)
T19F8 2760:787.200 - 0.003ms returns 0
T19F8 2760:787.200 JLINK_WriteReg(R11, 0x00000000)
T19F8 2760:787.200 - 0.003ms returns 0
T19F8 2760:787.200 JLINK_WriteReg(R12, 0x00000000)
T19F8 2760:787.200 - 0.003ms returns 0
T19F8 2760:787.200 JLINK_WriteReg(R13 (SP), 0x20001000)
T19F8 2760:787.200 - 0.003ms returns 0
T19F8 2760:787.200 JLINK_WriteReg(R14, 0x20000001)
T19F8 2760:787.200 - 0.003ms returns 0
T19F8 2760:787.200 JLINK_WriteReg(R15 (PC), 0x200000D8)
T19F8 2760:787.200 - 0.007ms returns 0
T19F8 2760:787.200 JLINK_WriteReg(XPSR, 0x01000000)
T19F8 2760:787.200 - 0.012ms returns 0
T19F8 2760:787.200 JLINK_WriteReg(MSP, 0x20001000)
T19F8 2760:787.200 - 0.003ms returns 0
T19F8 2760:787.200 JLINK_WriteReg(PSP, 0x20001000)
T19F8 2760:787.200 - 0.003ms returns 0
T19F8 2760:787.200 JLINK_WriteReg(CFBP, 0x00000000)
T19F8 2760:787.200 - 0.003ms returns 0
T19F8 2760:787.200 JLINK_SetBPEx(Addr = 0x20000000, Type = 0xFFFFFFF2)
T19F8 2760:787.200 - 0.004ms returns 0x0000000B
T19F8 2760:787.200 JLINK_Go()
T19F8 2760:787.200   CPU_ReadMem(4 bytes @ 0xE0001000)
T19F8 2760:794.112 - 6.962ms 
T19F8 2760:794.112 JLINK_IsHalted()
T19F8 2760:795.136 - 0.880ms returns FALSE
T19F8 2760:795.136 JLINK_HasError()
T19F8 2760:827.136 JLINK_IsHalted()
T19F8 2760:834.560   CPU_ReadMem(2 bytes @ 0x20000000)
T19F8 2760:835.584 - 8.497ms returns TRUE
T19F8 2760:835.584 JLINK_ReadReg(R15 (PC))
T19F8 2760:835.584 - 0.011ms returns 0x20000000
T19F8 2760:835.584 JLINK_ClrBPEx(BPHandle = 0x0000000B)
T19F8 2760:835.584 - 0.008ms returns 0x00
T19F8 2760:835.584 JLINK_ReadReg(R0)
T19F8 2760:835.584 - 0.007ms returns 0x00000000
T19F8 2760:836.352 JLINK_WriteMem(0x2000013C, 0x2C4 Bytes, ...)
T19F8 2760:836.352   Data:  F0 9F D4 F8 34 0E C4 F8 34 6E 37 1A B7 F5 00 5F ...
T19F8 2760:836.352   CPU_WriteMem(708 bytes @ 0x2000013C)
T19F8 2760:846.336 - 10.105ms returns 0x2C4
T19F8 2760:846.592 JLINK_WriteMem(0x20000400, 0x13C Bytes, ...)
T19F8 2760:846.592   Data:  05 46 EF F3 10 84 72 B6 0A 4F 4A F6 AA 26 3E 60 ...
T19F8 2760:846.592   CPU_WriteMem(316 bytes @ 0x20000400)
T19F8 2760:851.456 - 4.936ms returns 0x13C
T19F8 2760:851.456 JLINK_HasError()
T19F8 2760:851.456 JLINK_WriteReg(R0, 0x08001C00)
T19F8 2760:851.456 - 0.010ms returns 0
T19F8 2760:851.456 JLINK_WriteReg(R1, 0x00000400)
T19F8 2760:851.456 - 0.007ms returns 0
T19F8 2760:851.456 JLINK_WriteReg(R2, 0x2000013C)
T19F8 2760:851.456 - 0.007ms returns 0
T19F8 2760:851.456 JLINK_WriteReg(R3, 0x00000000)
T19F8 2760:851.456 - 0.007ms returns 0
T19F8 2760:851.456 JLINK_WriteReg(R4, 0x00000000)
T19F8 2760:851.456 - 0.007ms returns 0
T19F8 2760:851.712 JLINK_WriteReg(R5, 0x00000000)
T19F8 2760:851.712 - 0.009ms returns 0
T19F8 2760:851.712 JLINK_WriteReg(R6, 0x00000000)
T19F8 2760:851.712 - 0.007ms returns 0
T19F8 2760:851.712 JLINK_WriteReg(R7, 0x00000000)
T19F8 2760:851.712 - 0.007ms returns 0
T19F8 2760:851.712 JLINK_WriteReg(R8, 0x00000000)
T19F8 2760:851.712 - 0.007ms returns 0
T19F8 2760:851.712 JLINK_WriteReg(R9, 0x20000134)
T19F8 2760:851.712 - 0.007ms returns 0
T19F8 2760:851.712 JLINK_WriteReg(R10, 0x00000000)
T19F8 2760:851.712 - 0.007ms returns 0
T19F8 2760:851.712 JLINK_WriteReg(R11, 0x00000000)
T19F8 2760:851.712 - 0.007ms returns 0
T19F8 2760:851.712 JLINK_WriteReg(R12, 0x00000000)
T19F8 2760:851.712 - 0.007ms returns 0
T19F8 2760:851.712 JLINK_WriteReg(R13 (SP), 0x20001000)
T19F8 2760:851.712 - 0.007ms returns 0
T19F8 2760:851.712 JLINK_WriteReg(R14, 0x20000001)
T19F8 2760:851.712 - 0.007ms returns 0
T19F8 2760:851.712 JLINK_WriteReg(R15 (PC), 0x200000D8)
T19F8 2760:851.712 - 0.007ms returns 0
T19F8 2760:851.712 JLINK_WriteReg(XPSR, 0x01000000)
T19F8 2760:851.968 - 0.007ms returns 0
T19F8 2760:851.968 JLINK_WriteReg(MSP, 0x20001000)
T19F8 2760:851.968 - 0.007ms returns 0
T19F8 2760:851.968 JLINK_WriteReg(PSP, 0x20001000)
T19F8 2760:851.968 - 0.007ms returns 0
T19F8 2760:851.968 JLINK_WriteReg(CFBP, 0x00000000)
T19F8 2760:851.968 - 0.007ms returns 0
T19F8 2760:851.968 JLINK_SetBPEx(Addr = 0x20000000, Type = 0xFFFFFFF2)
T19F8 2760:851.968 - 0.010ms returns 0x0000000C
T19F8 2760:851.968 JLINK_Go()
T19F8 2760:851.968   CPU_ReadMem(4 bytes @ 0xE0001000)
T19F8 2760:859.136 - 7.324ms 
T19F8 2760:859.136 JLINK_IsHalted()
T19F8 2760:860.160 - 0.890ms returns FALSE
T19F8 2760:860.160 JLINK_HasError()
T19F8 2760:875.008 JLINK_IsHalted()
T19F8 2760:881.920   CPU_ReadMem(2 bytes @ 0x20000000)
T19F8 2760:882.688 - 7.703ms returns TRUE
T19F8 2760:882.688 JLINK_ReadReg(R15 (PC))
T19F8 2760:882.688 - 0.014ms returns 0x20000000
T19F8 2760:882.688 JLINK_ClrBPEx(BPHandle = 0x0000000C)
T19F8 2760:882.688 - 0.008ms returns 0x00
T19F8 2760:882.688 JLINK_ReadReg(R0)
T19F8 2760:882.688 - 0.008ms returns 0x00000000
T19F8 2760:883.456 JLINK_WriteMem(0x2000013C, 0x2C4 Bytes, ...)
T19F8 2760:883.456   Data:  09 D2 00 BF 06 EB 85 20 00 F0 64 F8 04 28 55 D1 ...
T19F8 2760:883.456   CPU_WriteMem(708 bytes @ 0x2000013C)
T19F8 2760:893.440 - 10.032ms returns 0x2C4
T19F8 2760:893.440 JLINK_WriteMem(0x20000400, 0x13C Bytes, ...)
T19F8 2760:893.440   Data:  04 8B 00 20 70 BD 00 00 63 14 9D 45 FC 66 00 20 ...
T19F8 2760:893.440   CPU_WriteMem(316 bytes @ 0x20000400)
T19F8 2760:898.304 - 4.918ms returns 0x13C
T19F8 2760:898.560 JLINK_HasError()
T19F8 2760:898.560 JLINK_WriteReg(R0, 0x08002000)
T19F8 2760:898.560 - 0.012ms returns 0
T19F8 2760:898.560 JLINK_WriteReg(R1, 0x00000400)
T19F8 2760:898.560 - 0.007ms returns 0
T19F8 2760:898.560 JLINK_WriteReg(R2, 0x2000013C)
T19F8 2760:898.560 - 0.007ms returns 0
T19F8 2760:898.560 JLINK_WriteReg(R3, 0x00000000)
T19F8 2760:898.560 - 0.007ms returns 0
T19F8 2760:898.560 JLINK_WriteReg(R4, 0x00000000)
T19F8 2760:898.560 - 0.007ms returns 0
T19F8 2760:898.816 JLINK_WriteReg(R5, 0x00000000)
T19F8 2760:898.816 - 0.032ms returns 0
T19F8 2760:898.816 JLINK_WriteReg(R6, 0x00000000)
T19F8 2760:898.816 - 0.008ms returns 0
T19F8 2760:898.816 JLINK_WriteReg(R7, 0x00000000)
T19F8 2760:898.816 - 0.007ms returns 0
T19F8 2760:898.816 JLINK_WriteReg(R8, 0x00000000)
T19F8 2760:898.816 - 0.007ms returns 0
T19F8 2760:898.816 JLINK_WriteReg(R9, 0x20000134)
T19F8 2760:898.816 - 0.007ms returns 0
T19F8 2760:898.816 JLINK_WriteReg(R10, 0x00000000)
T19F8 2760:898.816 - 0.007ms returns 0
T19F8 2760:898.816 JLINK_WriteReg(R11, 0x00000000)
